 ****** HSPICE -- G-2012.06-SP1 64-BIT (Aug 27 2012) RHEL64 ******              
  Copyright (C) 2012 Synopsys, Inc. All Rights Reserved.                        
  Unpublished-rights reserved under US copyright laws.
  This program is protected by law and is subject to the
  terms and conditions of the license agreement from Synopsys.
  Use of this program is your acceptance to be bound by the
  license agreement. HSPICE is the trademark of Synopsys, Inc.
  Input File: ./circuit_behavior/3stage.sp                                      
  Command line options: -C -i ./circuit_behavior/3stage.sp -o ./circuit_behavior/3stage
 Init: read install configuration file: /apps/EDAs/hspice2012.06-sp1/hspice/meta.cfg
  **warning** (./circuit_behavior/opamp.sp:1) Global net name, "gnd", in subckt pin list. The pin will be connected to the local net. Recommend to not use global net names in subckt pin lists.
1****** HSPICE -- G-2012.06-SP1 64-BIT (Aug 27 2012) RHEL64 ******              
 ******  
 .title project: three-stage opamp

  ******  circuit name directory
 circuit number to circuit name directory
   number circuitname                     definition         multiplier
        0 main circuit
        1 xac.                            opamp              1.00 
  
      
 *****************************************************************
 ******  option summary
 ******
 runlvl  = 3         bypass  = 2         
  Opening plot unit= 15
 file=./circuit_behavior/3stage.pa0

1****** HSPICE -- G-2012.06-SP1 64-BIT (Aug 27 2012) RHEL64 ******              
 ******  
 .title project: three-stage opamp

  ******  operating point information tnom=  25.000 temp=  27.000 *****
 ***** operating point status is all       simulation time is     0.     
    node    =voltage      node    =voltage      node    =voltage

 +0:vin_ac  =   0.      0:vo_ac   =   0.      1:1       =   0.     
 +1:2       =   0.      1:1_vo    =   0.      1:2_vo    =   0.     
 +1:1_gnd   =   0.     


 **** voltage sources

 subckt             
 element  0:vin     
  volts      0.     
  current    0.     
  power      0.     

     total voltage source power dissipation=    0.            watts



 **** resistors

 subckt   xac        xac        xac        xac        xac        xac       
 element  1:rprs_in_ 1:rprs_1_2 1:rprs_2_v 1:rprs_in_ 1:rprs_in_ 1:r_1_1_vo
  r value  150.4178k  182.5668k  901.9628k   75.4010k   71.7866k  792.6320k
  v drop     0.         0.         0.         0.         0.         0.     
  current    0.         0.         0.         0.         0.         0.     
  power      0.         0.         0.         0.         0.         0.     

 subckt   xac        xac        xac       
 element  1:r_2_2_vo 1:r_1_1_gn 1:r_l     
  r value  890.8277k  761.6023k  150.0000k
  v drop     0.         0.         0.     
  current    0.         0.         0.     
  power      0.         0.         0.     


 **** voltage-controlled current sources


 subckt     xac        xac        xac        xac        xac     
 element  1:g_in_1   1:g_1_2    1:g_2_vo   1:g_in_2_f 1:g_in_vo_
  v drop     0.         0.         0.         0.         0.     
  current    0.         0.         0.         0.         0.     



 ******  
 .title project: three-stage opamp

  ******  ac analysis tnom=  25.000 temp=  27.000 *****
x

        freq    volt db    
                   vo_ac   
    1.00000      70.0654   
    1.02329      70.0654   
    1.04713      70.0654   
    1.07152      70.0654   
    1.09648      70.0654   
    1.12202      70.0654   
    1.14815      70.0654   
    1.17490      70.0654   
    1.20226      70.0654   
    1.23027      70.0654   
    1.25893      70.0654   
    1.28825      70.0654   
    1.31826      70.0654   
    1.34896      70.0654   
    1.38038      70.0654   
    1.41254      70.0654   
    1.44544      70.0654   
    1.47911      70.0654   
    1.51356      70.0654   
    1.54882      70.0654   
    1.58489      70.0654   
    1.62181      70.0654   
    1.65959      70.0654   
    1.69824      70.0654   
    1.73780      70.0654   
    1.77828      70.0654   
    1.81970      70.0654   
    1.86209      70.0653   
    1.90546      70.0653   
    1.94984      70.0653   
    1.99526      70.0653   
    2.04174      70.0653   
    2.08930      70.0653   
    2.13796      70.0653   
    2.18776      70.0653   
    2.23872      70.0653   
    2.29087      70.0653   
    2.34423      70.0653   
    2.39883      70.0653   
    2.45471      70.0652   
    2.51189      70.0652   
    2.57040      70.0652   
    2.63027      70.0652   
    2.69153      70.0652   
    2.75423      70.0652   
    2.81838      70.0652   
    2.88403      70.0652   
    2.95121      70.0651   
    3.01995      70.0651   
    3.09030      70.0651   
    3.16228      70.0651   
    3.23594      70.0651   
    3.31131      70.0650   
    3.38844      70.0650   
    3.46737      70.0650   
    3.54813      70.0650   
    3.63078      70.0650   
    3.71535      70.0649   
    3.80189      70.0649   
    3.89045      70.0649   
    3.98107      70.0648   
    4.07380      70.0648   
    4.16869      70.0648   
    4.26580      70.0648   
    4.36516      70.0647   
    4.46684      70.0647   
    4.57088      70.0646   
    4.67735      70.0646   
    4.78630      70.0646   
    4.89779      70.0645   
    5.01187      70.0645   
    5.12861      70.0644   
    5.24807      70.0644   
    5.37032      70.0643   
    5.49541      70.0643   
    5.62341      70.0642   
    5.75440      70.0642   
    5.88844      70.0641   
    6.02560      70.0640   
    6.16595      70.0640   
    6.30957      70.0639   
    6.45654      70.0638   
    6.60693      70.0637   
    6.76083      70.0636   
    6.91831      70.0636   
    7.07946      70.0635   
    7.24436      70.0634   
    7.41310      70.0633   
    7.58578      70.0632   
    7.76247      70.0631   
    7.94328      70.0629   
    8.12831      70.0628   
    8.31764      70.0627   
    8.51138      70.0626   
    8.70964      70.0624   
    8.91251      70.0623   
    9.12011      70.0621   
    9.33254      70.0620   
    9.54993      70.0618   
    9.77237      70.0616   
   10.00000      70.0615   
   10.23293      70.0613   
   10.47129      70.0611   
   10.71519      70.0609   
   10.96478      70.0606   
   11.22018      70.0604   
   11.48154      70.0602   
   11.74898      70.0599   
   12.02264      70.0597   
   12.30269      70.0594   
   12.58925      70.0591   
   12.88250      70.0588   
   13.18257      70.0585   
   13.48963      70.0581   
   13.80384      70.0578   
   14.12538      70.0574   
   14.45440      70.0571   
   14.79108      70.0567   
   15.13561      70.0562   
   15.48817      70.0558   
   15.84893      70.0554   
   16.21810      70.0549   
   16.59587      70.0544   
   16.98244      70.0539   
   17.37801      70.0533   
   17.78279      70.0527   
   18.19701      70.0521   
   18.62087      70.0515   
   19.05461      70.0509   
   19.49845      70.0502   
   19.95262      70.0494   
   20.41738      70.0487   
   20.89296      70.0479   
   21.37962      70.0471   
   21.87762      70.0462   
   22.38721      70.0453   
   22.90868      70.0444   
   23.44229      70.0434   
   23.98833      70.0423   
   24.54709      70.0412   
   25.11886      70.0401   
   25.70396      70.0389   
   26.30268      70.0377   
   26.91535      70.0363   
   27.54229      70.0350   
   28.18383      70.0335   
   28.84032      70.0320   
   29.51209      70.0305   
   30.19952      70.0288   
   30.90295      70.0271   
   31.62278      70.0253   
   32.35937      70.0234   
   33.11311      70.0215   
   33.88442      70.0194   
   34.67369      70.0172   
   35.48134      70.0150   
   36.30781      70.0126   
   37.15352      70.0101   
   38.01894      70.0075   
   38.90451      70.0048   
   39.81072      70.0020   
   40.73803      69.9990   
   41.68694      69.9959   
   42.65795      69.9926   
   43.65158      69.9892   
   44.66836      69.9857   
   45.70882      69.9820   
   46.77351      69.9781   
   47.86301      69.9740   
   48.97788      69.9697   
   50.11872      69.9653   
   51.28614      69.9606   
   52.48075      69.9557   
   53.70318      69.9506   
   54.95409      69.9453   
   56.23413      69.9397   
   57.54399      69.9338   
   58.88437      69.9277   
   60.25596      69.9213   
   61.65950      69.9147   
   63.09573      69.9077   
   64.56542      69.9004   
   66.06934      69.8928   
   67.60830      69.8848   
   69.18310      69.8765   
   70.79458      69.8678   
   72.44360      69.8587   
   74.13102      69.8491   
   75.85776      69.8392   
   77.62471      69.8288   
   79.43282      69.8180   
   81.28305      69.8067   
   83.17638      69.7948   
   85.11380      69.7825   
   87.09636      69.7696   
   89.12509      69.7561   
   91.20108      69.7421   
   93.32543      69.7274   
   95.49926      69.7121   
   97.72372      69.6962   
  100.00000      69.6795   
  102.32930      69.6621   
  104.71285      69.6440   
  107.15193      69.6251   
  109.64782      69.6054   
  112.20185      69.5849   
  114.81536      69.5635   
  117.48976      69.5412   
  120.22644      69.5180   
  123.02688      69.4939   
  125.89254      69.4687   
  128.82496      69.4425   
  131.82567      69.4152   
  134.89629      69.3869   
  138.03843      69.3573   
  141.25375      69.3267   
  144.54398      69.2948   
  147.91084      69.2616   
  151.35612      69.2272   
  154.88166      69.1914   
  158.48932      69.1542   
  162.18101      69.1156   
  165.95869      69.0756   
  169.82437      69.0341   
  173.78008      68.9911   
  177.82794      68.9464   
  181.97009      68.9002   
  186.20871      68.8523   
  190.54607      68.8027   
  194.98446      68.7513   
  199.52623      68.6982   
  204.17379      68.6433   
  208.92961      68.5865   
  213.79621      68.5278   
  218.77616      68.4672   
  223.87211      68.4047   
  229.08677      68.3401   
  234.42288      68.2735   
  239.88329      68.2048   
  245.47089      68.1341   
  251.18864      68.0612   
  257.03958      67.9862   
  263.02680      67.9090   
  269.15348      67.8297   
  275.42287      67.7481   
  281.83829      67.6642   
  288.40315      67.5782   
  295.12092      67.4898   
  301.99517      67.3992   
  309.02954      67.3063   
  316.22777      67.2111   
  323.59366      67.1136   
  331.13112      67.0138   
  338.84416      66.9117   
  346.73685      66.8073   
  354.81339      66.7006   
  363.07805      66.5916   
  371.53523      66.4804   
  380.18940      66.3668   
  389.04514      66.2511   
  398.10717      66.1330   
  407.38028      66.0128   
  416.86938      65.8904   
  426.57952      65.7657   
  436.51583      65.6390   
  446.68359      65.5101   
  457.08819      65.3791   
  467.73514      65.2460   
  478.63009      65.1110   
  489.77882      64.9739   
  501.18723      64.8348   
  512.86138      64.6938   
  524.80746      64.5509   
  537.03180      64.4062   
  549.54087      64.2596   
  562.34133      64.1112   
  575.43994      63.9611   
  588.84366      63.8093   
  602.55959      63.6558   
  616.59500      63.5007   
  630.95734      63.3440   
  645.65423      63.1858   
  660.69345      63.0261   
  676.08298      62.8649   
  691.83097      62.7022   
  707.94578      62.5382   
  724.43596      62.3729   
  741.31024      62.2063   
  758.57758      62.0384   
  776.24712      61.8692   
  794.32823      61.6989   
  812.83052      61.5275   
  831.76377      61.3549   
  851.13804      61.1812   
  870.96359      61.0066   
  891.25094      60.8309   
  912.01084      60.6542   
  933.25430      60.4766   
  954.99259      60.2981   
  977.23722      60.1188   
    1.00000k     59.9386   
    1.02329k     59.7575   
    1.04713k     59.5757   
    1.07152k     59.3932   
    1.09648k     59.2099   
    1.12202k     59.0259   
    1.14815k     58.8413   
    1.17490k     58.6560   
    1.20226k     58.4701   
    1.23027k     58.2836   
    1.25893k     58.0965   
    1.28825k     57.9089   
    1.31826k     57.7207   
    1.34896k     57.5320   
    1.38038k     57.3429   
    1.41254k     57.1533   
    1.44544k     56.9632   
    1.47911k     56.7727   
    1.51356k     56.5817   
    1.54882k     56.3904   
    1.58489k     56.1987   
    1.62181k     56.0066   
    1.65959k     55.8142   
    1.69824k     55.6214   
    1.73780k     55.4283   
    1.77828k     55.2349   
    1.81970k     55.0411   
    1.86209k     54.8471   
    1.90546k     54.6529   
    1.94984k     54.4583   
    1.99526k     54.2635   
    2.04174k     54.0685   
    2.08930k     53.8732   
    2.13796k     53.6777   
    2.18776k     53.4820   
    2.23872k     53.2860   
    2.29087k     53.0899   
    2.34423k     52.8936   
    2.39883k     52.6971   
    2.45471k     52.5004   
    2.51189k     52.3035   
    2.57040k     52.1065   
    2.63027k     51.9093   
    2.69153k     51.7120   
    2.75423k     51.5145   
    2.81838k     51.3169   
    2.88403k     51.1191   
    2.95121k     50.9212   
    3.01995k     50.7232   
    3.09030k     50.5251   
    3.16228k     50.3268   
    3.23594k     50.1284   
    3.31131k     49.9299   
    3.38844k     49.7313   
    3.46737k     49.5325   
    3.54813k     49.3337   
    3.63078k     49.1348   
    3.71535k     48.9357   
    3.80189k     48.7366   
    3.89045k     48.5373   
    3.98107k     48.3380   
    4.07380k     48.1386   
    4.16869k     47.9391   
    4.26580k     47.7394   
    4.36516k     47.5397   
    4.46684k     47.3399   
    4.57088k     47.1401   
    4.67735k     46.9401   
    4.78630k     46.7400   
    4.89779k     46.5399   
    5.01187k     46.3396   
    5.12861k     46.1393   
    5.24807k     45.9388   
    5.37032k     45.7383   
    5.49541k     45.5377   
    5.62341k     45.3370   
    5.75440k     45.1362   
    5.88844k     44.9353   
    6.02560k     44.7343   
    6.16595k     44.5332   
    6.30957k     44.3320   
    6.45654k     44.1307   
    6.60693k     43.9293   
    6.76083k     43.7277   
    6.91831k     43.5261   
    7.07946k     43.3244   
    7.24436k     43.1225   
    7.41310k     42.9205   
    7.58578k     42.7184   
    7.76247k     42.5161   
    7.94328k     42.3138   
    8.12831k     42.1113   
    8.31764k     41.9086   
    8.51138k     41.7058   
    8.70964k     41.5029   
    8.91251k     41.2998   
    9.12011k     41.0965   
    9.33254k     40.8931   
    9.54993k     40.6895   
    9.77237k     40.4857   
   10.00000k     40.2818   
   10.23293k     40.0776   
   10.47129k     39.8733   
   10.71519k     39.6688   
   10.96478k     39.4640   
   11.22018k     39.2591   
   11.48154k     39.0539   
   11.74898k     38.8485   
   12.02264k     38.6428   
   12.30269k     38.4369   
   12.58925k     38.2308   
   12.88250k     38.0244   
   13.18257k     37.8177   
   13.48963k     37.6107   
   13.80384k     37.4035   
   14.12538k     37.1960   
   14.45440k     36.9881   
   14.79108k     36.7800   
   15.13561k     36.5715   
   15.48817k     36.3627   
   15.84893k     36.1536   
   16.21810k     35.9441   
   16.59587k     35.7343   
   16.98244k     35.5241   
   17.37801k     35.3135   
   17.78279k     35.1025   
   18.19701k     34.8912   
   18.62087k     34.6794   
   19.05461k     34.4673   
   19.49845k     34.2547   
   19.95262k     34.0417   
   20.41738k     33.8283   
   20.89296k     33.6145   
   21.37962k     33.4002   
   21.87762k     33.1855   
   22.38721k     32.9703   
   22.90868k     32.7546   
   23.44229k     32.5385   
   23.98833k     32.3220   
   24.54709k     32.1050   
   25.11886k     31.8875   
   25.70396k     31.6695   
   26.30268k     31.4510   
   26.91535k     31.2321   
   27.54229k     31.0128   
   28.18383k     30.7929   
   28.84032k     30.5726   
   29.51209k     30.3518   
   30.19952k     30.1306   
   30.90295k     29.9089   
   31.62278k     29.6868   
   32.35937k     29.4642   
   33.11311k     29.2412   
   33.88442k     29.0178   
   34.67369k     28.7940   
   35.48134k     28.5698   
   36.30781k     28.3452   
   37.15352k     28.1202   
   38.01894k     27.8948   
   38.90451k     27.6691   
   39.81072k     27.4431   
   40.73803k     27.2167   
   41.68694k     26.9901   
   42.65795k     26.7631   
   43.65158k     26.5359   
   44.66836k     26.3084   
   45.70882k     26.0807   
   46.77351k     25.8528   
   47.86301k     25.6247   
   48.97788k     25.3964   
   50.11872k     25.1680   
   51.28614k     24.9394   
   52.48075k     24.7107   
   53.70318k     24.4819   
   54.95409k     24.2530   
   56.23413k     24.0241   
   57.54399k     23.7952   
   58.88437k     23.5662   
   60.25596k     23.3372   
   61.65950k     23.1082   
   63.09573k     22.8793   
   64.56542k     22.6505   
   66.06934k     22.4217   
   67.60830k     22.1930   
   69.18310k     21.9645   
   70.79458k     21.7361   
   72.44360k     21.5079   
   74.13102k     21.2798   
   75.85776k     21.0519   
   77.62471k     20.8243   
   79.43282k     20.5968   
   81.28305k     20.3696   
   83.17638k     20.1427   
   85.11380k     19.9161   
   87.09636k     19.6897   
   89.12509k     19.4637   
   91.20108k     19.2379   
   93.32543k     19.0126   
   95.49926k     18.7875   
   97.72372k     18.5628   
  100.00000k     18.3385   
  102.32930k     18.1146   
  104.71285k     17.8910   
  107.15193k     17.6678   
  109.64782k     17.4451   
  112.20185k     17.2228   
  114.81536k     17.0008   
  117.48976k     16.7793   
  120.22644k     16.5583   
  123.02688k     16.3376   
  125.89254k     16.1174   
  128.82496k     15.8977   
  131.82567k     15.6783   
  134.89629k     15.4594   
  138.03843k     15.2410   
  141.25375k     15.0230   
  144.54398k     14.8054   
  147.91084k     14.5882   
  151.35612k     14.3715   
  154.88166k     14.1552   
  158.48932k     13.9394   
  162.18101k     13.7239   
  165.95869k     13.5089   
  169.82437k     13.2942   
  173.78008k     13.0800   
  177.82794k     12.8661   
  181.97009k     12.6526   
  186.20871k     12.4395   
  190.54607k     12.2268   
  194.98446k     12.0144   
  199.52623k     11.8023   
  204.17379k     11.5906   
  208.92961k     11.3792   
  213.79621k     11.1681   
  218.77616k     10.9574   
  223.87211k     10.7469   
  229.08677k     10.5367   
  234.42288k     10.3268   
  239.88329k     10.1171   
  245.47089k      9.9077   
  251.18864k      9.6985   
  257.03958k      9.4895   
  263.02680k      9.2808   
  269.15348k      9.0723   
  275.42287k      8.8639   
  281.83829k      8.6557   
  288.40315k      8.4477   
  295.12092k      8.2399   
  301.99517k      8.0322   
  309.02954k      7.8246   
  316.22777k      7.6172   
  323.59366k      7.4098   
  331.13112k      7.2026   
  338.84416k      6.9954   
  346.73685k      6.7883   
  354.81339k      6.5813   
  363.07805k      6.3743   
  371.53523k      6.1673   
  380.18940k      5.9604   
  389.04514k      5.7535   
  398.10717k      5.5465   
  407.38028k      5.3396   
  416.86938k      5.1326   
  426.57952k      4.9256   
  436.51583k      4.7185   
  446.68359k      4.5113   
  457.08819k      4.3041   
  467.73514k      4.0968   
  478.63009k      3.8893   
  489.77882k      3.6818   
  501.18723k      3.4740   
  512.86138k      3.2662   
  524.80746k      3.0581   
  537.03180k      2.8499   
  549.54087k      2.6415   
  562.34133k      2.4328   
  575.43994k      2.2239   
  588.84366k      2.0148   
  602.55959k      1.8053   
  616.59500k      1.5956   
  630.95734k      1.3856   
  645.65423k      1.1752   
  660.69345k    964.5347m  
  676.08298k    753.4535m  
  691.83097k    541.9772m  
  707.94578k    330.0850m  
  724.43596k    117.7530m  
  741.31024k    -95.0424m  
  758.57758k   -308.3260m  
  776.24712k   -522.1231m  
  794.32823k   -736.4597m  
  812.83052k   -951.3640m  
  831.76377k     -1.1669   
